Time [s], Analyzer Name, Decoded Protocol Result
0.000004720000000,I2C,Setup Write to [0x84] + ACK
0.000095600000000,I2C,0x00 + ACK
0.000201520000000,I2C,Setup Read to [0x85] + ACK
0.000296160000000,I2C,0x7B + NAK
0.000413600000000,I2C,Setup Write to [0x84] + ACK
0.000504480000000,I2C,0x41 + ACK
0.000610400000000,I2C,Setup Read to [0x85] + ACK
0.000705040000000,I2C,0x00 + NAK
0.000816920000000,I2C,Setup Write to [0x84] + ACK
0.000907720000000,I2C,0x41 + ACK
0.000998560000000,I2C,0x02 + ACK
0.001993760000000,I2C,Setup Write to [0x84] + ACK
0.002084640000000,I2C,0x41 + ACK
0.002190600000000,I2C,Setup Read to [0x85] + ACK
0.002285200000000,I2C,0x02 + NAK
0.002397000000000,I2C,Setup Write to [0x84] + ACK
0.002487840000000,I2C,0x41 + ACK
0.002578680000000,I2C,0x03 + ACK
0.003000200000000,I2C,Setup Write to [0x84] + ACK
0.003091040000000,I2C,0x40 + ACK
0.003197000000000,I2C,Setup Read to [0x85] + ACK
0.003291600000000,I2C,0x00 + NAK
0.003403520000000,I2C,Setup Write to [0x84] + ACK
0.003494360000000,I2C,0x40 + ACK
0.003585200000000,I2C,0x04 + ACK
0.003697080000000,I2C,Setup Write to [0x84] + ACK
0.003787920000000,I2C,0x80 + ACK
0.003878800000000,I2C,0x08 + ACK
0.003990240000000,I2C,Setup Write to [0x84] + ACK
0.004081080000000,I2C,0x81 + ACK
0.004171920000000,I2C,0xFF + ACK
0.004284000000000,I2C,Setup Write to [0x84] + ACK
0.004374880000000,I2C,0x82 + ACK
0.004465720000000,I2C,0x03 + ACK
0.004577640000000,I2C,Setup Write to [0x84] + ACK
0.004668480000000,I2C,0x83 + ACK
0.004759320000000,I2C,0xE8 + ACK
0.004870400000000,I2C,Setup Write to [0x84] + ACK
0.004961240000000,I2C,0x84 + ACK
0.005052080000000,I2C,0x00 + ACK
0.005164040000000,I2C,Setup Write to [0x84] + ACK
0.005254880000000,I2C,0x85 + ACK
0.005345720000000,I2C,0x18 + ACK
0.005457840000000,I2C,Setup Write to [0x84] + ACK
0.005548680000000,I2C,0x86 + ACK
0.005639520000000,I2C,0x02 + ACK
0.005750720000000,I2C,Setup Write to [0x84] + ACK
0.005841520000000,I2C,0x87 + ACK
0.005932360000000,I2C,0x6C + ACK
0.006044160000000,I2C,Setup Write to [0x84] + ACK
0.006135000000000,I2C,0x88 + ACK
0.006225880000000,I2C,0x00 + ACK
0.006336920000000,I2C,Setup Write to [0x84] + ACK
0.006427760000000,I2C,0x89 + ACK
0.006518640000000,I2C,0x00 + ACK
0.006630680000000,I2C,Setup Write to [0x84] + ACK
0.006721520000000,I2C,0x8A + ACK
0.006812400000000,I2C,0x27 + ACK
0.006923520000000,I2C,Setup Write to [0x84] + ACK
0.007014360000000,I2C,0x8B + ACK
0.007105200000000,I2C,0x10 + ACK
0.007217400000000,I2C,Setup Write to [0x84] + ACK
0.007308240000000,I2C,0x90 + ACK
0.007399080000000,I2C,0x95 + ACK
0.007511160000000,I2C,Setup Write to [0x84] + ACK
0.007602040000000,I2C,0x91 + ACK
0.007692920000000,I2C,0x95 + ACK
0.007804160000000,I2C,Setup Write to [0x84] + ACK
0.007895040000000,I2C,0x92 + ACK
0.007985880000000,I2C,0x95 + ACK
0.008097800000000,I2C,Setup Write to [0x84] + ACK
0.008188680000000,I2C,0x93 + ACK
0.008279520000000,I2C,0x00 + ACK
0.008390800000000,I2C,Setup Write to [0x84] + ACK
0.008481640000000,I2C,0x94 + ACK
0.008572520000000,I2C,0xFF + ACK
0.008684080000000,I2C,Setup Write to [0x84] + ACK
0.008774960000000,I2C,0x8C + ACK
0.008865800000000,I2C,0x13 + ACK
0.008976880000000,I2C,Setup Write to [0x84] + ACK
0.009067760000000,I2C,0x8D + ACK
0.009158600000000,I2C,0x7E + ACK
0.009270080000000,I2C,Setup Write to [0x84] + ACK
0.009360960000000,I2C,0x8E + ACK
0.009451800000000,I2C,0x07 + ACK
0.009563760000000,I2C,Setup Write to [0x84] + ACK
0.009654600000000,I2C,0x8F + ACK
0.009745480000000,I2C,0xD0 + ACK
0.009856600000000,I2C,Setup Write to [0x84] + ACK
0.009947440000000,I2C,0x96 + ACK
0.010038320000000,I2C,0x64 + ACK
0.010150640000000,I2C,Setup Write to [0x84] + ACK
0.010241520000000,I2C,0x97 + ACK
0.010332360000000,I2C,0x0A + ACK
0.010446920000000,I2C,Setup Write to [0x84] + ACK
0.010537800000000,I2C,0x98 + ACK
0.010628640000000,I2C,0x04 + ACK
0.010740920000000,I2C,Setup Write to [0x84] + ACK
0.010831800000000,I2C,0x01 + ACK
0.010937800000000,I2C,Setup Read to [0x85] + ACK
0.011032440000000,I2C,0x02 + ACK
0.011123280000000,I2C,0x06 + NAK
0.011246080000000,I2C,Setup Write to [0x84] + ACK
0.011336960000000,I2C,0x42 + ACK
0.011442960000000,I2C,Setup Read to [0x85] + ACK
0.011537600000000,I2C,0x00 + NAK
0.011649560000000,I2C,Setup Write to [0x84] + ACK
0.011740400000000,I2C,0x42 + ACK
0.011831280000000,I2C,0x02 + ACK
0.011953560000000,I2C,Setup Write to [0x84] + ACK
0.012044400000000,I2C,0x42 + ACK
0.012150360000000,I2C,Setup Read to [0x85] + ACK
0.012244960000000,I2C,0x02 + NAK
0.012357200000000,I2C,Setup Write to [0x84] + ACK
0.012448080000000,I2C,0x42 + ACK
0.012538920000000,I2C,0x06 + ACK
0.035414800000000,I2C,Setup Write to [0x84] + ACK
0.035505640000000,I2C,0x80 + ACK
0.035611640000000,I2C,Setup Read to [0x85] + ACK
0.035706320000000,I2C,0x08 + NAK
0.035818800000000,I2C,Setup Write to [0x84] + ACK
0.035909640000000,I2C,0x80 + ACK
0.036000520000000,I2C,0x09 + ACK
3.614722280000000,I2C,Setup Write to [0x84] + ACK
3.614813080000000,I2C,0x08 + ACK
3.614919000000000,I2C,Setup Read to [0x85] + ACK
3.615013600000000,I2C,0x02 + NAK
3.615126400000000,I2C,Setup Write to [0x84] + ACK
3.615217200000000,I2C,0x08 + ACK
3.615323120000000,I2C,Setup Read to [0x85] + ACK
3.615417680000000,I2C,0x02 + NAK
3.615530440000000,I2C,Setup Write to [0x84] + ACK
3.615621240000000,I2C,0x44 + ACK
3.615712040000000,I2C,0x02 + ACK
3.615824200000000,I2C,Setup Write to [0x84] + ACK
3.615915000000000,I2C,0x14 + ACK
3.616020880000000,I2C,Setup Read to [0x85] + ACK
3.616115520000000,I2C,0x00 + ACK
3.616206320000000,I2C,0x85 + ACK
3.616297080000000,I2C,0x10 + NAK
